<Qucs Dataset 0.0.15>
<indep x 10>
  +5.00000000000e+00
  +1.00000000000e+01
  +1.50000000000e+01
  +2.00000000000e+01
  +2.50000000000e+01
  +3.00000000000e+01
  +3.50000000000e+01
  +4.00000000000e+01
  +4.50000000000e+01
  +5.00000000000e+01
</indep>
<dep V1.I x>
  -1.56250000000e+00
  -9.61538461538e-01
  -6.94444444444e-01
  -5.43478260870e-01
  -4.46428571429e-01
  -3.78787878788e-01
  -3.28947368421e-01
  -2.90697674419e-01
  -2.60416666667e-01
  -2.35849056604e-01
</dep>
<dep izeja.V x>
  +7.81250000000e+00
  +9.61538461538e+00
  +1.04166666667e+01
  +1.08695652174e+01
  +1.11607142857e+01
  +1.13636363636e+01
  +1.15131578947e+01
  +1.16279069767e+01
  +1.17187500000e+01
  +1.17924528302e+01
</dep>
<dep _net0.V x>
  +1.25000000000e+01
  +1.25000000000e+01
  +1.25000000000e+01
  +1.25000000000e+01
  +1.25000000000e+01
  +1.25000000000e+01
  +1.25000000000e+01
  +1.25000000000e+01
  +1.25000000000e+01
  +1.25000000000e+01
</dep>
